T6714 000:014.682   SEGGER J-Link V8.92 Log File
T6714 000:014.802   DLL Compiled: Dec  3 2025 16:42:11
T6714 000:014.805   Logging started @ 2025-12-23 10:55
T6714 000:014.809   Process: F:\keil5\UV4\UV4.exe
T6714 000:014.821 - 14.812ms 
T6714 000:014.832 JLINK_SetWarnOutHandler(...)
T6714 000:014.836 - 0.005ms 
T6714 000:014.846 JLINK_OpenEx(...)
T6714 000:018.665   Firmware: J-Link V9 compiled May  7 2021 16:26:12
T6714 000:020.032   Firmware: J-Link V9 compiled May  7 2021 16:26:12
T6714 000:020.201   Decompressing FW timestamp took 101 us
T6714 000:027.430   Hardware: V9.70
T6714 000:027.448   S/N: 602712415
T6714 000:027.454   OEM: SEGGER
T6714 000:027.459   Feature(s): GDB, RDI, FlashBP, FlashDL, JFlash
T6714 000:028.672   Bootloader: (FW returned invalid version)
T6714 000:030.102   TELNET listener socket opened on port 19021
T6714 000:030.204   WEBSRV WEBSRV_Init(): Starting webserver thread(s)
T6714 000:030.425   WEBSRV Webserver running on local port 19080
T6714 000:030.532   Looking for J-Link GUI Server exe at: F:\keil5\ARM\Segger\JLinkGUIServer.exe
T6714 000:030.618   Looking for J-Link GUI Server exe at: C:\Program Files\SEGGER\JLink\JLinkGUIServer.exe
T6714 000:030.643   Forking J-Link GUI Server: C:\Program Files\SEGGER\JLink\JLinkGUIServer.exe
T6714 000:033.399   J-Link GUI Server info: "J-Link GUI server V8.92 "
T6714 000:033.696 - 18.845ms returns "O.K."
T6714 000:033.714 JLINK_GetEmuCaps()
T6714 000:033.720 - 0.004ms returns 0xB9FF7BBF
T6714 000:033.728 JLINK_TIF_GetAvailable(...)
T6714 000:034.194 - 0.466ms 
T6714 000:034.206 JLINK_SetErrorOutHandler(...)
T6714 000:034.211 - 0.004ms 
T6714 000:034.252 JLINK_ExecCommand("ProjectFile = "F:\RCIA\2026-RM-MechaCore\Robot\InfantryOmni-No2\2026StringWheelChassis_C_board\MDK-ARM\JLinkSettings.ini"", ...). 
T6714 000:047.728   Ref file found at: F:\keil5\ARM\Segger\JLinkDevices.ref
T6714 000:047.808   REF file references invalid XML file: C:\Program Files\SEGGER\JLink\JLinkDevices.xml
T6714 000:048.852 - 14.602ms returns 0x00
T6714 000:048.905 JLINK_ExecCommand("Device = STM32F407IGHx", ...). 
T6714 000:050.192   Device "STM32F407IG" selected.
T6714 000:050.525 - 1.612ms returns 0x00
T6714 000:050.539 JLINK_ExecCommand("DisableConnectionTimeout", ...). 
T6714 000:050.557   ERROR: Unknown command
T6714 000:050.564 - 0.017ms returns 0x01
T6714 000:050.571 JLINK_GetHardwareVersion()
T6714 000:050.576 - 0.005ms returns 97000
T6714 000:050.581 JLINK_GetDLLVersion()
T6714 000:050.586 - 0.005ms returns 89200
T6714 000:050.592 JLINK_GetOEMString(...)
T6714 000:050.597 JLINK_GetFirmwareString(...)
T6714 000:050.602 - 0.004ms 
T6714 000:050.641 JLINK_GetDLLVersion()
T6714 000:050.648 - 0.006ms returns 89200
T6714 000:050.652 JLINK_GetCompileDateTime()
T6714 000:050.658 - 0.005ms 
T6714 000:050.672 JLINK_GetFirmwareString(...)
T6714 000:050.677 - 0.005ms 
T6714 000:050.687 JLINK_GetHardwareVersion()
T6714 000:050.691 - 0.004ms returns 97000
T6714 000:050.703 JLINK_GetSN()
T6714 000:050.708 - 0.004ms returns 602712415
T6714 000:050.716 JLINK_GetOEMString(...)
T6714 000:050.733 JLINK_TIF_Select(JLINKARM_TIF_SWD)
T6714 000:052.356 - 1.626ms returns 0x00
T6714 000:052.384 JLINK_HasError()
T6714 000:052.406 JLINK_SetSpeed(5000)
T6714 000:052.763 - 0.357ms 
T6714 000:052.781 JLINK_GetId()
T6714 000:053.195   InitTarget() start
T6714 000:053.206    J-Link Script File: Executing InitTarget()
T6714 000:053.530   SWD selected. Executing JTAG -> SWD switching sequence.
T6714 000:056.654   DAP initialized successfully.
T6714 000:066.531   InitTarget() end - Took 13.2ms
T6714 000:067.685   Found SW-DP with ID 0x2BA01477
T6714 000:070.955   DPIDR: 0x2BA01477
T6714 000:070.970   CoreSight SoC-400 or earlier
T6714 000:070.979   Scanning AP map to find all available APs
T6714 000:071.952   AP[1]: Stopped AP scan as end of AP map has been reached
T6714 000:071.964   AP[0]: AHB-AP (IDR: 0x24770011, ADDR: 0x00000000)
T6714 000:071.973   Iterating through AP map to find AHB-AP to use
T6714 000:073.491   AP[0]: Core found
T6714 000:073.513   AP[0]: AHB-AP ROM base: 0xE00FF000
T6714 000:074.223   CPUID register: 0x410FC241. Implementer code: 0x41 (ARM)
T6714 000:074.249   Found Cortex-M4 r0p1, Little endian.
T6714 000:075.030   -- Max. mem block: 0x00010780
T6714 000:075.829   CPU_ReadMem(4 bytes @ 0xE000EDF0)
T6714 000:076.349   CPU_ReadMem(4 bytes @ 0xE0002000)
T6714 000:076.979   FPUnit: 6 code (BP) slots and 2 literal slots
T6714 000:076.993   CPU_ReadMem(4 bytes @ 0xE000EDFC)
T6714 000:077.580   CPU_WriteMem(4 bytes @ 0xE000EDFC)
T6714 000:078.110   CPU_ReadMem(4 bytes @ 0xE0001000)
T6714 000:078.711   CPU_WriteMem(4 bytes @ 0xE0001000)
T6714 000:079.219   CPU_ReadMem(4 bytes @ 0xE000ED88)
T6714 000:079.832   CPU_WriteMem(4 bytes @ 0xE000ED88)
T6714 000:080.334   CPU_ReadMem(4 bytes @ 0xE000ED88)
T6714 000:080.823   CPU_WriteMem(4 bytes @ 0xE000ED88)
T6714 000:081.371   CoreSight components:
T6714 000:081.382   ROMTbl[0] @ E00FF000
T6714 000:081.387   CPU_ReadMem(64 bytes @ 0xE00FF000)
T6714 000:082.436   CPU_ReadMem(32 bytes @ 0xE000EFE0)
T6714 000:083.231   [0][0]: E000E000 CID B105E00D PID 000BB00C SCS-M7
T6714 000:083.245   CPU_ReadMem(32 bytes @ 0xE0001FE0)
T6714 000:084.067   [0][1]: E0001000 CID B105E00D PID 003BB002 DWT
T6714 000:084.076   CPU_ReadMem(32 bytes @ 0xE0002FE0)
T6714 000:084.847   [0][2]: E0002000 CID B105E00D PID 002BB003 FPB
T6714 000:084.857   CPU_ReadMem(32 bytes @ 0xE0000FE0)
T6714 000:085.681   [0][3]: E0000000 CID B105E00D PID 003BB001 ITM
T6714 000:085.698   CPU_ReadMem(32 bytes @ 0xE0040FE0)
T6714 000:086.473   [0][4]: E0040000 CID B105900D PID 000BB9A1 TPIU
T6714 000:086.488   CPU_ReadMem(32 bytes @ 0xE0041FE0)
T6714 000:087.270   [0][5]: E0041000 CID B105900D PID 000BB925 ETM
T6714 000:087.708 - 34.925ms returns 0x2BA01477
T6714 000:087.792 JLINK_GetDLLVersion()
T6714 000:087.797 - 0.004ms returns 89200
T6714 000:087.802 JLINK_CORE_GetFound()
T6714 000:087.806 - 0.004ms returns 0xE0000FF
T6714 000:087.812 JLINK_GetDebugInfo(0x100 = JLINKARM_ROM_TABLE_ADDR_INDEX)
T6714 000:087.820   Value=0xE00FF000
T6714 000:087.826 - 0.014ms returns 0
T6714 000:087.844 JLINK_GetDebugInfo(0x100 = JLINKARM_ROM_TABLE_ADDR_INDEX)
T6714 000:087.848   Value=0xE00FF000
T6714 000:087.853 - 0.009ms returns 0
T6714 000:087.858 JLINK_GetDebugInfo(0x101 = JLINKARM_DEBUG_INFO_ETM_ADDR_INDEX)
T6714 000:087.862   Value=0xE0041000
T6714 000:087.868 - 0.009ms returns 0
T6714 000:087.873 JLINK_ReadMemEx(0xE0041FD0, 0x20 Bytes, Flags = 0x02000004)
T6714 000:087.904   CPU_ReadMem(32 bytes @ 0xE0041FD0)
T6714 000:088.673   Data:  04 00 00 00 00 00 00 00 00 00 00 00 00 00 00 00 ...
T6714 000:088.684 - 0.810ms returns 32 (0x20)
T6714 000:088.690 JLINK_GetDebugInfo(0x102 = JLINKARM_DEBUG_INFO_MTB_ADDR_INDEX)
T6714 000:088.694   Value=0x00000000
T6714 000:088.698 - 0.008ms returns 0
T6714 000:088.702 JLINK_GetDebugInfo(0x103 = JLINKARM_DEBUG_INFO_TPIU_ADDR_INDEX)
T6714 000:088.705   Value=0xE0040000
T6714 000:088.710 - 0.007ms returns 0
T6714 000:088.714 JLINK_GetDebugInfo(0x104 = JLINKARM_DEBUG_INFO_ITM_ADDR_INDEX)
T6714 000:088.717   Value=0xE0000000
T6714 000:088.722 - 0.008ms returns 0
T6714 000:088.727 JLINK_GetDebugInfo(0x105 = JLINKARM_DEBUG_INFO_DWT_ADDR_INDEX)
T6714 000:088.731   Value=0xE0001000
T6714 000:088.736 - 0.009ms returns 0
T6714 000:088.742 JLINK_GetDebugInfo(0x106 = JLINKARM_DEBUG_INFO_FPB_ADDR_INDEX)
T6714 000:088.745   Value=0xE0002000
T6714 000:088.751 - 0.009ms returns 0
T6714 000:088.756 JLINK_GetDebugInfo(0x107 = JLINKARM_DEBUG_INFO_NVIC_ADDR_INDEX)
T6714 000:088.760   Value=0xE000E000
T6714 000:088.765 - 0.009ms returns 0
T6714 000:088.770 JLINK_GetDebugInfo(0x10C = JLINKARM_DEBUG_INFO_DBG_ADDR_INDEX)
T6714 000:088.774   Value=0xE000EDF0
T6714 000:088.780 - 0.009ms returns 0
T6714 000:088.785 JLINK_GetDebugInfo(0x01 = Unknown)
T6714 000:088.789   Value=0x00000001
T6714 000:088.794 - 0.009ms returns 0
T6714 000:088.799 JLINK_ReadMemU32(0xE000ED00, 0x1 Items)
T6714 000:088.822   CPU_ReadMem(4 bytes @ 0xE000ED00)
T6714 000:089.360   Data:  41 C2 0F 41
T6714 000:089.379   Debug reg: CPUID
T6714 000:089.385 - 0.585ms returns 1 (0x1)
T6714 000:089.392 JLINK_GetDebugInfo(0x10F = JLINKARM_DEBUG_INFO_HAS_CORTEX_M_SECURITY_EXT_INDEX)
T6714 000:089.396   Value=0x00000000
T6714 000:089.402 - 0.010ms returns 0
T6714 000:089.407 JLINK_HasError()
T6714 000:089.413 JLINK_SetResetType(JLINKARM_CM3_RESET_TYPE_NORMAL)
T6714 000:089.418 - 0.004ms returns JLINKARM_CM3_RESET_TYPE_NORMAL
T6714 000:089.423 JLINK_Reset()
T6714 000:089.435   JLINK_GetResetTypeDesc
T6714 000:089.439   - 0.004ms 
T6714 000:089.469   Reset type: NORMAL (https://kb.segger.com/J-Link_Reset_Strategies)
T6714 000:089.480   CPU is running
T6714 000:089.487   CPU_WriteMem(4 bytes @ 0xE000EDF0)
T6714 000:090.122   CPU is running
T6714 000:090.135   CPU_WriteMem(4 bytes @ 0xE000EDFC)
T6714 000:090.755   Reset: Halt core after reset via DEMCR.VC_CORERESET.
T6714 000:091.699   Reset: Reset device via AIRCR.SYSRESETREQ.
T6714 000:091.716   CPU is running
T6714 000:091.725   CPU_WriteMem(4 bytes @ 0xE000ED0C)
T6714 000:146.210   CPU_ReadMem(4 bytes @ 0xE000EDF0)
T6714 000:146.707   CPU_ReadMem(4 bytes @ 0xE000EDF0)
T6714 000:150.780   CPU_WriteMem(4 bytes @ 0xE000EDFC)
T6714 000:157.637   CPU_ReadMem(4 bytes @ 0xE000EDF0)
T6714 000:162.072   CPU_WriteMem(4 bytes @ 0xE0002000)
T6714 000:162.740   CPU_ReadMem(4 bytes @ 0xE000EDFC)
T6714 000:163.345   CPU_ReadMem(4 bytes @ 0xE0001000)
T6714 000:163.863 - 74.439ms 
T6714 000:163.915 JLINK_HasError()
T6714 000:163.927 JLINK_ReadReg(R15 (PC))
T6714 000:163.934 - 0.012ms returns 0x08000318
T6714 000:163.939 JLINK_ReadReg(XPSR)
T6714 000:163.942 - 0.003ms returns 0x01000000
T6714 000:163.947 JLINK_Halt()
T6714 000:163.950 - 0.003ms returns 0x00
T6714 000:163.955 JLINK_ReadMemU32(0xE000EDF0, 0x1 Items)
T6714 000:163.964   CPU_ReadMem(4 bytes @ 0xE000EDF0)
T6714 000:164.485   Data:  03 00 03 00
T6714 000:164.490   Debug reg: DHCSR
T6714 000:164.495 - 0.540ms returns 1 (0x1)
T6714 000:164.500 JLINK_WriteU32(0xE000EDF0, 0xA05F0003)
T6714 000:164.503   Debug reg: DHCSR
T6714 000:164.738   CPU_WriteMem(4 bytes @ 0xE000EDF0)
T6714 000:165.362 - 0.862ms returns 0 (0x00000000)
T6714 000:165.370 JLINK_WriteU32(0xE000EDFC, 0x01000000)
T6714 000:165.374   Debug reg: DEMCR
T6714 000:165.411   CPU_WriteMem(4 bytes @ 0xE000EDFC)
T6714 000:166.028 - 0.658ms returns 0 (0x00000000)
T6714 000:166.073 JLINK_GetHWStatus(...)
T6714 000:166.445 - 0.371ms returns 0
T6714 000:166.462 JLINK_GetNumBPUnits(Type = 0xFFFFFF00)
T6714 000:166.467 - 0.004ms returns 0x06
T6714 000:166.471 JLINK_GetNumBPUnits(Type = 0xF0)
T6714 000:166.474 - 0.003ms returns 0x2000
T6714 000:166.478 JLINK_GetNumWPUnits()
T6714 000:166.481 - 0.003ms returns 4
T6714 000:166.491 JLINK_GetSpeed()
T6714 000:166.495 - 0.003ms returns 4000
T6714 000:166.503 JLINK_ReadMemU32(0xE000E004, 0x1 Items)
T6714 000:166.509   CPU_ReadMem(4 bytes @ 0xE000E004)
T6714 000:167.098   Data:  02 00 00 00
T6714 000:167.105 - 0.602ms returns 1 (0x1)
T6714 000:167.110 JLINK_ReadMemU32(0xE000E004, 0x1 Items)
T6714 000:167.116   CPU_ReadMem(4 bytes @ 0xE000E004)
T6714 000:167.723   Data:  02 00 00 00
T6714 000:167.730 - 0.619ms returns 1 (0x1)
T6714 000:167.736 JLINK_WriteMemEx(0xE0001000, 0x0000001C Bytes, Flags = 0x02000004)
T6714 000:167.739   Data:  01 00 00 00 00 00 00 00 00 00 00 00 00 00 00 00 ...
T6714 000:167.748   CPU_WriteMem(28 bytes @ 0xE0001000)
T6714 000:168.497 - 0.761ms returns 0x1C
T6714 000:168.504 JLINK_HasError()
T6714 000:168.509 JLINK_ReadReg(R15 (PC))
T6714 000:168.514 - 0.004ms returns 0x08000318
T6714 000:168.518 JLINK_ReadReg(XPSR)
T6714 000:168.521 - 0.003ms returns 0x01000000
T6714 000:172.516 JLINK_ReadMemEx(0xE0001004, 0x4 Bytes, Flags = 0x02000000)
T6714 000:172.541   Data:  00 00 00 00
T6714 000:172.547   Debug reg: DWT_CYCCNT
T6714 000:172.552 - 0.036ms returns 4 (0x4)
T6714 000:296.907 JLINK_HasError()
T6714 000:296.934 JLINK_SetResetType(JLINKARM_CM3_RESET_TYPE_NORMAL)
T6714 000:296.940 - 0.005ms returns JLINKARM_CM3_RESET_TYPE_NORMAL
T6714 000:296.944 JLINK_Reset()
T6714 000:296.968   JLINK_GetResetTypeDesc
T6714 000:296.972   - 0.004ms 
T6714 000:296.996   Reset type: NORMAL (https://kb.segger.com/J-Link_Reset_Strategies)
T6714 000:297.004   CPU_WriteMem(4 bytes @ 0xE000EDF0)
T6714 000:297.627   CPU_WriteMem(4 bytes @ 0xE000EDFC)
T6714 000:298.278   Reset: Halt core after reset via DEMCR.VC_CORERESET.
T6714 000:299.118   Reset: Reset device via AIRCR.SYSRESETREQ.
T6714 000:299.130   CPU_WriteMem(4 bytes @ 0xE000ED0C)
T6714 000:353.985   CPU_ReadMem(4 bytes @ 0xE000EDF0)
T6714 000:354.600   CPU_ReadMem(4 bytes @ 0xE000EDF0)
T6714 000:355.102   CPU_WriteMem(4 bytes @ 0xE000EDFC)
T6714 000:361.110   CPU_ReadMem(4 bytes @ 0xE000EDF0)
T6714 000:365.159   CPU_WriteMem(4 bytes @ 0xE0002000)
T6714 000:365.743   CPU_ReadMem(4 bytes @ 0xE000EDFC)
T6714 000:366.353   CPU_ReadMem(4 bytes @ 0xE0001000)
T6714 000:366.848 - 69.903ms 
T6714 000:366.909 JLINK_HasError()
T6714 000:366.917 JLINK_ReadReg(R15 (PC))
T6714 000:366.941 - 0.024ms returns 0x08000318
T6714 000:366.946 JLINK_ReadReg(XPSR)
T6714 000:366.950 - 0.003ms returns 0x01000000
T6714 000:367.651 JLINK_ReadMemEx(0x08000318, 0x3C Bytes, Flags = 0x02000000)
T6714 000:367.692   CPU_ReadMem(128 bytes @ 0x08000300)
T6714 000:369.085    -- Updating C cache (128 bytes @ 0x08000300)
T6714 000:369.093    -- Read from C cache (60 bytes @ 0x08000318)
T6714 000:369.099   Data:  09 48 80 47 09 48 00 47 FE E7 FE E7 FE E7 FE E7 ...
T6714 000:369.104 - 1.453ms returns 60 (0x3C)
T6714 000:369.109 JLINK_ReadMemEx(0x08000318, 0x2 Bytes, Flags = 0x02000000)
T6714 000:369.113    -- Read from C cache (2 bytes @ 0x08000318)
T6714 000:369.118   Data:  09 48
T6714 000:369.122 - 0.013ms returns 2 (0x2)
T6714 000:369.180 JLINK_ReadMemEx(0x0800031A, 0x2 Bytes, Flags = 0x02000000)
T6714 000:369.184    -- Read from C cache (2 bytes @ 0x0800031A)
T6714 000:369.188   Data:  80 47
T6714 000:369.193 - 0.012ms returns 2 (0x2)
T6714 000:369.203 JLINK_ReadMemEx(0x0800031A, 0x2 Bytes, Flags = 0x02000000)
T6714 000:369.206    -- Read from C cache (2 bytes @ 0x0800031A)
T6714 000:369.211   Data:  80 47
T6714 000:369.215 - 0.012ms returns 2 (0x2)
T6714 000:369.219 JLINK_ReadMemEx(0x0800031C, 0x3C Bytes, Flags = 0x02000000)
T6714 000:369.223    -- Read from C cache (60 bytes @ 0x0800031C)
T6714 000:369.228   Data:  09 48 00 47 FE E7 FE E7 FE E7 FE E7 FE E7 FE E7 ...
T6714 000:369.232 - 0.012ms returns 60 (0x3C)
T6714 000:369.236 JLINK_ReadMemEx(0x0800031C, 0x2 Bytes, Flags = 0x02000000)
T6714 000:369.239    -- Read from C cache (2 bytes @ 0x0800031C)
T6714 000:369.244   Data:  09 48
T6714 000:369.249 - 0.012ms returns 2 (0x2)
T6714 003:332.064 JLINK_HasError()
T6714 003:332.095 JLINK_ReadReg(R0)
T6714 003:332.677 - 0.581ms returns 0x00000000
T6714 003:332.692 JLINK_ReadReg(R1)
T6714 003:332.696 - 0.004ms returns 0x00000000
T6714 003:332.700 JLINK_ReadReg(R2)
T6714 003:332.703 - 0.003ms returns 0x00000000
T6714 003:332.707 JLINK_ReadReg(R3)
T6714 003:332.710 - 0.003ms returns 0x00000000
T6714 003:332.714 JLINK_ReadReg(R4)
T6714 003:332.717 - 0.003ms returns 0x00000000
T6714 003:332.721 JLINK_ReadReg(R5)
T6714 003:332.724 - 0.003ms returns 0x00000000
T6714 003:332.728 JLINK_ReadReg(R6)
T6714 003:332.731 - 0.003ms returns 0x00000000
T6714 003:332.735 JLINK_ReadReg(R7)
T6714 003:332.738 - 0.003ms returns 0x00000000
T6714 003:332.753 JLINK_ReadReg(R8)
T6714 003:332.757 - 0.014ms returns 0x00000000
T6714 003:332.760 JLINK_ReadReg(R9)
T6714 003:332.764 - 0.003ms returns 0x00000000
T6714 003:332.768 JLINK_ReadReg(R10)
T6714 003:332.771 - 0.003ms returns 0x00000000
T6714 003:332.775 JLINK_ReadReg(R11)
T6714 003:332.778 - 0.003ms returns 0x00000000
T6714 003:332.782 JLINK_ReadReg(R12)
T6714 003:332.785 - 0.003ms returns 0x00000000
T6714 003:332.789 JLINK_ReadReg(R13 (SP))
T6714 003:332.792 - 0.003ms returns 0x20005600
T6714 003:332.796 JLINK_ReadReg(R14)
T6714 003:332.799 - 0.003ms returns 0xFFFFFFFF
T6714 003:332.803 JLINK_ReadReg(R15 (PC))
T6714 003:332.807 - 0.003ms returns 0x08000318
T6714 003:332.860 JLINK_ReadReg(XPSR)
T6714 003:332.866 - 0.006ms returns 0x01000000
T6714 003:332.871 JLINK_ReadReg(MSP)
T6714 003:332.874 - 0.003ms returns 0x20005600
T6714 003:332.878 JLINK_ReadReg(PSP)
T6714 003:332.881 - 0.003ms returns 0x00000000
T6714 003:332.885 JLINK_ReadReg(CFBP)
T6714 003:332.888 - 0.003ms returns 0x00000000
T6714 003:332.892 JLINK_ReadReg(FPSCR)
T6714 003:338.147 - 5.254ms returns 0x00000000
T6714 003:338.168 JLINK_ReadReg(FPS0)
T6714 003:338.174 - 0.006ms returns 0x00000000
T6714 003:338.178 JLINK_ReadReg(FPS1)
T6714 003:338.181 - 0.003ms returns 0x00000000
T6714 003:338.185 JLINK_ReadReg(FPS2)
T6714 003:338.188 - 0.003ms returns 0x00000000
T6714 003:338.192 JLINK_ReadReg(FPS3)
T6714 003:338.196 - 0.003ms returns 0x00000000
T6714 003:338.199 JLINK_ReadReg(FPS4)
T6714 003:338.203 - 0.003ms returns 0x00000000
T6714 003:338.206 JLINK_ReadReg(FPS5)
T6714 003:338.210 - 0.003ms returns 0x00000000
T6714 003:338.213 JLINK_ReadReg(FPS6)
T6714 003:338.216 - 0.003ms returns 0x00000000
T6714 003:338.220 JLINK_ReadReg(FPS7)
T6714 003:338.223 - 0.003ms returns 0x00000000
T6714 003:338.227 JLINK_ReadReg(FPS8)
T6714 003:338.230 - 0.003ms returns 0x00000000
T6714 003:338.234 JLINK_ReadReg(FPS9)
T6714 003:338.237 - 0.003ms returns 0x00000000
T6714 003:338.241 JLINK_ReadReg(FPS10)
T6714 003:338.244 - 0.003ms returns 0x00000000
T6714 003:338.248 JLINK_ReadReg(FPS11)
T6714 003:338.251 - 0.003ms returns 0x00000000
T6714 003:338.255 JLINK_ReadReg(FPS12)
T6714 003:338.258 - 0.003ms returns 0x00000000
T6714 003:338.262 JLINK_ReadReg(FPS13)
T6714 003:338.266 - 0.003ms returns 0x00000000
T6714 003:338.270 JLINK_ReadReg(FPS14)
T6714 003:338.273 - 0.003ms returns 0x00000000
T6714 003:338.277 JLINK_ReadReg(FPS15)
T6714 003:338.280 - 0.003ms returns 0x00000000
T6714 003:338.284 JLINK_ReadReg(FPS16)
T6714 003:338.287 - 0.003ms returns 0x00000000
T6714 003:338.291 JLINK_ReadReg(FPS17)
T6714 003:338.294 - 0.003ms returns 0x00000000
T6714 003:338.298 JLINK_ReadReg(FPS18)
T6714 003:338.301 - 0.003ms returns 0x00000000
T6714 003:338.305 JLINK_ReadReg(FPS19)
T6714 003:338.308 - 0.003ms returns 0x00000000
T6714 003:338.312 JLINK_ReadReg(FPS20)
T6714 003:338.315 - 0.003ms returns 0x00000000
T6714 003:338.319 JLINK_ReadReg(FPS21)
T6714 003:338.322 - 0.003ms returns 0x00000000
T6714 003:338.326 JLINK_ReadReg(FPS22)
T6714 003:338.329 - 0.003ms returns 0x00000000
T6714 003:338.332 JLINK_ReadReg(FPS23)
T6714 003:338.336 - 0.003ms returns 0x00000000
T6714 003:338.340 JLINK_ReadReg(FPS24)
T6714 003:338.343 - 0.003ms returns 0x00000000
T6714 003:338.347 JLINK_ReadReg(FPS25)
T6714 003:338.350 - 0.003ms returns 0x00000000
T6714 003:338.353 JLINK_ReadReg(FPS26)
T6714 003:338.356 - 0.003ms returns 0x00000000
T6714 003:338.360 JLINK_ReadReg(FPS27)
T6714 003:338.363 - 0.003ms returns 0x00000000
T6714 003:338.367 JLINK_ReadReg(FPS28)
T6714 003:338.370 - 0.003ms returns 0x00000000
T6714 003:338.374 JLINK_ReadReg(FPS29)
T6714 003:338.377 - 0.003ms returns 0x00000000
T6714 003:338.381 JLINK_ReadReg(FPS30)
T6714 003:338.384 - 0.003ms returns 0x00000000
T6714 003:338.388 JLINK_ReadReg(FPS31)
T6714 003:338.391 - 0.003ms returns 0x00000000
T34F0 003:460.271 JLINK_ReadMemEx(0x08000318, 0x2 Bytes, Flags = 0x02000000)
T34F0 003:460.301    -- Read from C cache (2 bytes @ 0x08000318)
T34F0 003:460.307   Data:  09 48
T34F0 003:460.313 - 0.042ms returns 2 (0x2)
T34F0 003:460.318 JLINK_HasError()
T34F0 003:460.325 JLINK_SetBPEx(Addr = 0x0800D254, Type = 0xFFFFFFF2)
T34F0 003:460.332 - 0.007ms returns 0x00000001
T34F0 003:460.336 JLINK_HasError()
T34F0 003:460.340 JLINK_HasError()
T34F0 003:460.344 JLINK_Go()
T34F0 003:460.357   CPU_WriteMem(4 bytes @ 0xE0002000)
T34F0 003:460.973   CPU_ReadMem(4 bytes @ 0xE0001000)
T34F0 003:461.531   CPU_WriteMem(4 bytes @ 0xE0002008)
T34F0 003:461.541   CPU_WriteMem(4 bytes @ 0xE000200C)
T34F0 003:461.546   CPU_WriteMem(4 bytes @ 0xE0002010)
T34F0 003:461.550   CPU_WriteMem(4 bytes @ 0xE0002014)
T34F0 003:461.554   CPU_WriteMem(4 bytes @ 0xE0002018)
T34F0 003:461.564   CPU_WriteMem(4 bytes @ 0xE000201C)
T34F0 003:463.406   CPU_WriteMem(4 bytes @ 0xE0001004)
T34F0 003:465.578   Memory map 'after startup completion point' is active
T34F0 003:465.604 - 5.259ms 
T34F0 003:566.038 JLINK_HasError()
T34F0 003:566.059 JLINK_IsHalted()
T34F0 003:569.731 - 3.670ms returns TRUE
T34F0 003:569.752 JLINK_HasError()
T34F0 003:569.758 JLINK_Halt()
T34F0 003:569.762 - 0.004ms returns 0x00
T34F0 003:569.768 JLINK_IsHalted()
T34F0 003:569.772 - 0.004ms returns TRUE
T34F0 003:569.777 JLINK_IsHalted()
T34F0 003:569.780 - 0.003ms returns TRUE
T34F0 003:569.785 JLINK_IsHalted()
T34F0 003:569.789 - 0.004ms returns TRUE
T34F0 003:569.795 JLINK_HasError()
T34F0 003:569.800 JLINK_ReadReg(R15 (PC))
T34F0 003:569.812 - 0.011ms returns 0x08001A78
T34F0 003:569.821 JLINK_ReadReg(XPSR)
T34F0 003:569.828 - 0.006ms returns 0x21000000
T34F0 003:569.853 JLINK_HasError()
T34F0 003:569.919 JLINK_ClrBPEx(BPHandle = 0x00000001)
T34F0 003:569.931 - 0.012ms returns 0x00
T34F0 003:569.940 JLINK_HasError()
T34F0 003:569.948 JLINK_HasError()
T34F0 003:569.955 JLINK_ReadMemU32(0xE000ED30, 0x1 Items)
T34F0 003:569.971   CPU_ReadMem(4 bytes @ 0xE000ED30)
T34F0 003:570.549   Data:  02 00 00 00
T34F0 003:570.560 - 0.605ms returns 1 (0x1)
T34F0 003:570.566 JLINK_ReadMemU32(0xE0001028, 0x1 Items)
T34F0 003:570.572   CPU_ReadMem(4 bytes @ 0xE0001028)
T34F0 003:571.174   Data:  00 00 00 00
T34F0 003:571.186   Debug reg: DWT_FUNC[0]
T34F0 003:571.192 - 0.626ms returns 1 (0x1)
T34F0 003:571.199 JLINK_ReadMemU32(0xE0001038, 0x1 Items)
T34F0 003:571.208   CPU_ReadMem(4 bytes @ 0xE0001038)
T34F0 003:571.783   Data:  00 02 00 00
T34F0 003:571.792   Debug reg: DWT_FUNC[1]
T34F0 003:571.797 - 0.598ms returns 1 (0x1)
T34F0 003:571.803 JLINK_ReadMemU32(0xE0001048, 0x1 Items)
T34F0 003:571.810   CPU_ReadMem(4 bytes @ 0xE0001048)
T34F0 003:572.308   Data:  00 00 00 00
T34F0 003:572.318   Debug reg: DWT_FUNC[2]
T34F0 003:572.323 - 0.519ms returns 1 (0x1)
T34F0 003:572.328 JLINK_ReadMemU32(0xE0001058, 0x1 Items)
T34F0 003:572.336   CPU_ReadMem(4 bytes @ 0xE0001058)
T34F0 003:572.917   Data:  00 00 00 00
T34F0 003:572.928   Debug reg: DWT_FUNC[3]
T34F0 003:572.935 - 0.606ms returns 1 (0x1)
T34F0 003:572.984 JLINK_HasError()
T34F0 003:572.993 JLINK_ReadReg(R0)
T34F0 003:573.001 - 0.008ms returns 0x00000001
T34F0 003:573.014 JLINK_ReadReg(R1)
T34F0 003:573.019 - 0.004ms returns 0x200055B8
T34F0 003:573.025 JLINK_ReadReg(R2)
T34F0 003:573.030 - 0.005ms returns 0x80000000
T34F0 003:573.036 JLINK_ReadReg(R3)
T34F0 003:573.040 - 0.004ms returns 0x080103EA
T34F0 003:573.045 JLINK_ReadReg(R4)
T34F0 003:573.049 - 0.003ms returns 0x00000000
T34F0 003:573.054 JLINK_ReadReg(R5)
T34F0 003:573.059 - 0.004ms returns 0x00000001
T34F0 003:573.064 JLINK_ReadReg(R6)
T34F0 003:573.069 - 0.004ms returns 0x20000050
T34F0 003:573.075 JLINK_ReadReg(R7)
T34F0 003:573.079 - 0.004ms returns 0x080103E9
T34F0 003:573.085 JLINK_ReadReg(R8)
T34F0 003:573.089 - 0.004ms returns 0x00000000
T34F0 003:573.094 JLINK_ReadReg(R9)
T34F0 003:573.099 - 0.004ms returns 0x00000000
T34F0 003:573.104 JLINK_ReadReg(R10)
T34F0 003:573.108 - 0.004ms returns 0x0801098C
T34F0 003:573.114 JLINK_ReadReg(R11)
T34F0 003:573.118 - 0.004ms returns 0x00000000
T34F0 003:573.124 JLINK_ReadReg(R12)
T34F0 003:573.128 - 0.004ms returns 0x00000000
T34F0 003:573.133 JLINK_ReadReg(R13 (SP))
T34F0 003:573.138 - 0.004ms returns 0x200055B8
T34F0 003:573.143 JLINK_ReadReg(R14)
T34F0 003:573.148 - 0.004ms returns 0x08001A73
T34F0 003:573.153 JLINK_ReadReg(R15 (PC))
T34F0 003:573.158 - 0.004ms returns 0x08001A78
T34F0 003:573.164 JLINK_ReadReg(XPSR)
T34F0 003:573.168 - 0.004ms returns 0x21000000
T34F0 003:573.174 JLINK_ReadReg(MSP)
T34F0 003:573.179 - 0.004ms returns 0x200055B8
T34F0 003:573.185 JLINK_ReadReg(PSP)
T34F0 003:573.189 - 0.004ms returns 0x00000000
T34F0 003:573.193 JLINK_ReadReg(CFBP)
T34F0 003:573.196 - 0.003ms returns 0x04000000
T34F0 003:573.201 JLINK_ReadReg(FPSCR)
T34F0 003:578.668 - 5.465ms returns 0x03000000
T34F0 003:578.714 JLINK_ReadReg(FPS0)
T34F0 003:578.727 - 0.013ms returns 0x00000000
T34F0 003:578.732 JLINK_ReadReg(FPS1)
T34F0 003:578.736 - 0.004ms returns 0x00000000
T34F0 003:578.742 JLINK_ReadReg(FPS2)
T34F0 003:578.746 - 0.004ms returns 0x00000000
T34F0 003:578.750 JLINK_ReadReg(FPS3)
T34F0 003:578.755 - 0.004ms returns 0x00000000
T34F0 003:578.760 JLINK_ReadReg(FPS4)
T34F0 003:578.764 - 0.004ms returns 0x00000000
T34F0 003:578.769 JLINK_ReadReg(FPS5)
T34F0 003:578.773 - 0.004ms returns 0x00000000
T34F0 003:578.778 JLINK_ReadReg(FPS6)
T34F0 003:578.782 - 0.004ms returns 0x00000000
T34F0 003:578.787 JLINK_ReadReg(FPS7)
T34F0 003:578.791 - 0.003ms returns 0x00000000
T34F0 003:578.796 JLINK_ReadReg(FPS8)
T34F0 003:578.800 - 0.004ms returns 0x00000000
T34F0 003:578.805 JLINK_ReadReg(FPS9)
T34F0 003:578.809 - 0.003ms returns 0x00000000
T34F0 003:578.814 JLINK_ReadReg(FPS10)
T34F0 003:578.818 - 0.004ms returns 0x00000000
T34F0 003:578.823 JLINK_ReadReg(FPS11)
T34F0 003:578.827 - 0.003ms returns 0x00000000
T34F0 003:578.832 JLINK_ReadReg(FPS12)
T34F0 003:578.836 - 0.003ms returns 0x00000000
T34F0 003:578.840 JLINK_ReadReg(FPS13)
T34F0 003:578.844 - 0.003ms returns 0x00000000
T34F0 003:578.849 JLINK_ReadReg(FPS14)
T34F0 003:578.853 - 0.004ms returns 0x00000000
T34F0 003:578.858 JLINK_ReadReg(FPS15)
T34F0 003:578.862 - 0.003ms returns 0x00000000
T34F0 003:578.867 JLINK_ReadReg(FPS16)
T34F0 003:578.871 - 0.003ms returns 0x00000000
T34F0 003:578.876 JLINK_ReadReg(FPS17)
T34F0 003:578.880 - 0.004ms returns 0x00000000
T34F0 003:578.884 JLINK_ReadReg(FPS18)
T34F0 003:578.888 - 0.003ms returns 0x00000000
T34F0 003:578.893 JLINK_ReadReg(FPS19)
T34F0 003:578.897 - 0.003ms returns 0x00000000
T34F0 003:578.902 JLINK_ReadReg(FPS20)
T34F0 003:578.906 - 0.004ms returns 0x00000000
T34F0 003:578.911 JLINK_ReadReg(FPS21)
T34F0 003:578.915 - 0.003ms returns 0x00000000
T34F0 003:578.920 JLINK_ReadReg(FPS22)
T34F0 003:578.924 - 0.004ms returns 0x00000000
T34F0 003:578.928 JLINK_ReadReg(FPS23)
T34F0 003:578.940 - 0.012ms returns 0x00000000
T34F0 003:578.945 JLINK_ReadReg(FPS24)
T34F0 003:578.949 - 0.003ms returns 0x00000000
T34F0 003:578.954 JLINK_ReadReg(FPS25)
T34F0 003:578.958 - 0.004ms returns 0x00000000
T34F0 003:578.963 JLINK_ReadReg(FPS26)
T34F0 003:578.968 - 0.004ms returns 0x00000000
T34F0 003:578.974 JLINK_ReadReg(FPS27)
T34F0 003:578.980 - 0.006ms returns 0x00000000
T34F0 003:578.988 JLINK_ReadReg(FPS28)
T34F0 003:578.993 - 0.004ms returns 0x00000000
T34F0 003:578.998 JLINK_ReadReg(FPS29)
T34F0 003:579.002 - 0.004ms returns 0x00000000
T34F0 003:579.006 JLINK_ReadReg(FPS30)
T34F0 003:579.010 - 0.003ms returns 0x00000000
T34F0 003:579.015 JLINK_ReadReg(FPS31)
T34F0 003:579.020 - 0.004ms returns 0x00000000
T34F0 003:579.032 JLINK_ReadMemEx(0x20004BF8, 0x4 Bytes, Flags = 0x02000000)
T34F0 003:579.049   CPU_ReadMem(64 bytes @ 0x20004BC0)
T34F0 003:579.964    -- Updating C cache (64 bytes @ 0x20004BC0)
T34F0 003:579.977    -- Read from C cache (4 bytes @ 0x20004BF8)
T34F0 003:579.983   Data:  00 00 00 00
T34F0 003:579.989 - 0.957ms returns 4 (0x4)
T6714 003:580.569 JLINK_ReadMemEx(0x200055C4, 0x4 Bytes, Flags = 0x02000000)
T6714 003:580.592   CPU_ReadMem(64 bytes @ 0x200055C0)
T6714 003:581.661    -- Updating C cache (64 bytes @ 0x200055C0)
T6714 003:581.672    -- Read from C cache (4 bytes @ 0x200055C4)
T6714 003:581.678   Data:  E9 18 00 08
T6714 003:581.683 - 1.114ms returns 4 (0x4)
T6714 003:581.693 JLINK_ReadMemEx(0x200055C4, 0x4 Bytes, Flags = 0x02000000)
T6714 003:581.699    -- Read from C cache (4 bytes @ 0x200055C4)
T6714 003:581.704   Data:  E9 18 00 08
T6714 003:581.708 - 0.015ms returns 4 (0x4)
T6714 003:581.714 JLINK_ReadMemEx(0x200055DC, 0x4 Bytes, Flags = 0x02000000)
T6714 003:581.718    -- Read from C cache (4 bytes @ 0x200055DC)
T6714 003:581.723   Data:  85 0D 00 08
T6714 003:581.728 - 0.013ms returns 4 (0x4)
T6714 003:581.732 JLINK_ReadMemEx(0x200055C8, 0x4 Bytes, Flags = 0x02000000)
T6714 003:581.736    -- Read from C cache (4 bytes @ 0x200055C8)
T6714 003:581.745   Data:  6C 01 00 20
T6714 003:581.749 - 0.017ms returns 4 (0x4)
T6714 003:581.754 JLINK_ReadMemEx(0x200055CC, 0x4 Bytes, Flags = 0x02000000)
T6714 003:581.757    -- Read from C cache (4 bytes @ 0x200055CC)
T6714 003:581.762   Data:  4C 01 00 20
T6714 003:581.766 - 0.013ms returns 4 (0x4)
T6714 003:581.771 JLINK_ReadMemEx(0x200055D0, 0x4 Bytes, Flags = 0x02000000)
T6714 003:581.774    -- Read from C cache (4 bytes @ 0x200055D0)
T6714 003:581.779   Data:  00 00 00 00
T6714 003:581.783 - 0.012ms returns 4 (0x4)
T6714 003:581.787 JLINK_ReadMemEx(0x200055D4, 0x4 Bytes, Flags = 0x02000000)
T6714 003:581.791    -- Read from C cache (4 bytes @ 0x200055D4)
T6714 003:581.795   Data:  00 00 00 00
T6714 003:581.800 - 0.012ms returns 4 (0x4)
T6714 003:581.804 JLINK_ReadMemEx(0x200055D8, 0x4 Bytes, Flags = 0x02000000)
T6714 003:581.807    -- Read from C cache (4 bytes @ 0x200055D8)
T6714 003:581.812   Data:  00 00 00 00
T6714 003:581.816 - 0.012ms returns 4 (0x4)
T6714 003:581.820 JLINK_ReadMemEx(0x200055DC, 0x4 Bytes, Flags = 0x02000000)
T6714 003:581.824    -- Read from C cache (4 bytes @ 0x200055DC)
T6714 003:581.828   Data:  85 0D 00 08
T6714 003:581.833 - 0.012ms returns 4 (0x4)
T6714 003:581.838 JLINK_ReadMemEx(0x200055E4, 0x4 Bytes, Flags = 0x02000000)
T6714 003:581.841    -- Read from C cache (4 bytes @ 0x200055E4)
T6714 003:581.846   Data:  E7 02 00 08
T6714 003:581.850 - 0.012ms returns 4 (0x4)
T6714 003:581.861 JLINK_ReadMemEx(0x200055E0, 0x4 Bytes, Flags = 0x02000000)
T6714 003:581.865    -- Read from C cache (4 bytes @ 0x200055E0)
T6714 003:581.870   Data:  6C 01 00 20
T6714 003:581.875 - 0.013ms returns 4 (0x4)
T6714 003:581.879 JLINK_ReadMemEx(0x200055E4, 0x4 Bytes, Flags = 0x02000000)
T6714 003:581.882    -- Read from C cache (4 bytes @ 0x200055E4)
T6714 003:581.887   Data:  E7 02 00 08
T6714 003:581.892 - 0.012ms returns 4 (0x4)
T6714 003:585.444 JLINK_ReadMemEx(0x08001A78, 0x3C Bytes, Flags = 0x02000000)
T6714 003:585.468   CPU_ReadMem(128 bytes @ 0x08001A40)
T6714 003:586.905    -- Updating C cache (128 bytes @ 0x08001A40)
T6714 003:586.915    -- Read from C cache (60 bytes @ 0x08001A78)
T6714 003:586.922   Data:  AB BE 0E BD 08 B5 69 46 00 90 02 20 AB BE 08 BD ...
T6714 003:586.927 - 1.484ms returns 60 (0x3C)
T6714 003:586.935 JLINK_ReadMemEx(0x08001A78, 0x2 Bytes, Flags = 0x02000000)
T6714 003:586.940    -- Read from C cache (2 bytes @ 0x08001A78)
T6714 003:586.946   Data:  AB BE
T6714 003:586.952 - 0.017ms returns 2 (0x2)
T6714 003:586.961 JLINK_ReadMemEx(0x08001A7A, 0x2 Bytes, Flags = 0x02000000)
T6714 003:586.967    -- Read from C cache (2 bytes @ 0x08001A7A)
T6714 003:586.972   Data:  0E BD
T6714 003:586.978 - 0.017ms returns 2 (0x2)
T6714 003:587.023 JLINK_ReadMemEx(0x08001A7A, 0x2 Bytes, Flags = 0x02000000)
T6714 003:587.033    -- Read from C cache (2 bytes @ 0x08001A7A)
T6714 003:587.038   Data:  0E BD
T6714 003:587.044 - 0.021ms returns 2 (0x2)
T6714 003:587.050 JLINK_ReadMemEx(0x08001A7C, 0x3C Bytes, Flags = 0x02000000)
T6714 003:587.054    -- Read from C cache (60 bytes @ 0x08001A7C)
T6714 003:587.061   Data:  08 B5 69 46 00 90 02 20 AB BE 08 BD 1F B5 8D E8 ...
T6714 003:587.066 - 0.016ms returns 60 (0x3C)
T6714 003:587.071 JLINK_ReadMemEx(0x08001A7C, 0x2 Bytes, Flags = 0x02000000)
T6714 003:587.076    -- Read from C cache (2 bytes @ 0x08001A7C)
T6714 003:587.081   Data:  08 B5
T6714 003:587.087 - 0.015ms returns 2 (0x2)
T6714 003:587.098 JLINK_ReadMemEx(0x08001A7C, 0x3C Bytes, Flags = 0x02000000)
T6714 003:587.103    -- Read from C cache (60 bytes @ 0x08001A7C)
T6714 003:587.109   Data:  08 B5 69 46 00 90 02 20 AB BE 08 BD 1F B5 8D E8 ...
T6714 003:587.114 - 0.016ms returns 60 (0x3C)
T6714 003:587.119 JLINK_ReadMemEx(0x08001A7C, 0x2 Bytes, Flags = 0x02000000)
T6714 003:587.124    -- Read from C cache (2 bytes @ 0x08001A7C)
T6714 003:587.129   Data:  08 B5
T6714 003:587.135 - 0.015ms returns 2 (0x2)
T6714 003:587.140 JLINK_ReadMemEx(0x08001A7E, 0x2 Bytes, Flags = 0x02000000)
T6714 003:587.192    -- Read from C cache (2 bytes @ 0x08001A7E)
T6714 003:587.201   Data:  69 46
T6714 003:587.207 - 0.067ms returns 2 (0x2)
T6714 003:587.214 JLINK_ReadMemEx(0x08001A7E, 0x2 Bytes, Flags = 0x02000000)
T6714 003:587.219    -- Read from C cache (2 bytes @ 0x08001A7E)
T6714 003:587.224   Data:  69 46
T6714 003:587.230 - 0.015ms returns 2 (0x2)
T6714 003:587.235 JLINK_ReadMemEx(0x08001A80, 0x3C Bytes, Flags = 0x02000000)
T6714 003:587.239    -- Read from C cache (60 bytes @ 0x08001A80)
T6714 003:587.245   Data:  00 90 02 20 AB BE 08 BD 1F B5 8D E8 07 00 69 46 ...
T6714 003:587.251 - 0.016ms returns 60 (0x3C)
T6714 003:587.256 JLINK_ReadMemEx(0x08001A80, 0x2 Bytes, Flags = 0x02000000)
T6714 003:587.260    -- Read from C cache (2 bytes @ 0x08001A80)
T6714 003:587.266   Data:  00 90
T6714 003:587.271 - 0.015ms returns 2 (0x2)
T34F0 003:830.443 JLINK_ReadMemEx(0x08001A78, 0x2 Bytes, Flags = 0x02000000)
T34F0 003:830.467    -- Read from C cache (2 bytes @ 0x08001A78)
T34F0 003:830.472   Data:  AB BE
T34F0 003:830.479 - 0.036ms returns 2 (0x2)
T34F0 003:830.485 JLINK_HasError()
T34F0 003:830.494 JLINK_WriteReg(R15 (PC), 0x08001A7A)
T34F0 003:830.502 - 0.008ms returns 0
T34F0 003:830.506 JLINK_HasError()
T34F0 003:830.510 JLINK_HasError()
T34F0 003:830.515 JLINK_Go()
T34F0 003:830.534   CPU_ReadMem(4 bytes @ 0xE0001000)
T34F0 003:831.065   CPU_WriteMem(4 bytes @ 0xE0002008)
T34F0 003:832.969 - 2.453ms 
T34F0 003:933.394 JLINK_HasError()
T34F0 003:933.424 JLINK_IsHalted()
T34F0 003:936.900 - 3.475ms returns TRUE
T34F0 003:936.919 JLINK_HasError()
T34F0 003:936.924 JLINK_Halt()
T34F0 003:936.928 - 0.004ms returns 0x00
T34F0 003:936.933 JLINK_IsHalted()
T34F0 003:936.937 - 0.003ms returns TRUE
T34F0 003:936.941 JLINK_IsHalted()
T34F0 003:936.945 - 0.003ms returns TRUE
T34F0 003:936.949 JLINK_IsHalted()
T34F0 003:936.953 - 0.003ms returns TRUE
T34F0 003:936.958 JLINK_HasError()
T34F0 003:936.963 JLINK_ReadReg(R15 (PC))
T34F0 003:936.970 - 0.007ms returns 0x08001A78
T34F0 003:936.975 JLINK_ReadReg(XPSR)
T34F0 003:936.979 - 0.004ms returns 0x21000000
T34F0 003:936.988 JLINK_HasError()
T34F0 003:936.992 JLINK_HasError()
T34F0 003:936.997 JLINK_ReadMemU32(0xE000ED30, 0x1 Items)
T34F0 003:937.008   CPU_ReadMem(4 bytes @ 0xE000ED30)
T34F0 003:937.575   Data:  02 00 00 00
T34F0 003:937.584 - 0.586ms returns 1 (0x1)
T34F0 003:937.589 JLINK_ReadMemU32(0xE0001028, 0x1 Items)
T34F0 003:937.595   CPU_ReadMem(4 bytes @ 0xE0001028)
T34F0 003:938.206   Data:  00 00 00 00
T34F0 003:938.215   Debug reg: DWT_FUNC[0]
T34F0 003:938.220 - 0.631ms returns 1 (0x1)
T34F0 003:938.226 JLINK_ReadMemU32(0xE0001038, 0x1 Items)
T34F0 003:938.232   CPU_ReadMem(4 bytes @ 0xE0001038)
T34F0 003:938.856   Data:  00 02 00 00
T34F0 003:938.864   Debug reg: DWT_FUNC[1]
T34F0 003:938.869 - 0.642ms returns 1 (0x1)
T34F0 003:938.874 JLINK_ReadMemU32(0xE0001048, 0x1 Items)
T34F0 003:938.879   CPU_ReadMem(4 bytes @ 0xE0001048)
T34F0 003:939.461   Data:  00 00 00 00
T34F0 003:939.469   Debug reg: DWT_FUNC[2]
T34F0 003:939.474 - 0.600ms returns 1 (0x1)
T34F0 003:939.481 JLINK_ReadMemU32(0xE0001058, 0x1 Items)
T34F0 003:939.486   CPU_ReadMem(4 bytes @ 0xE0001058)
T34F0 003:940.073   Data:  00 00 00 00
T34F0 003:940.084   Debug reg: DWT_FUNC[3]
T34F0 003:940.090 - 0.608ms returns 1 (0x1)
T34F0 003:940.134 JLINK_HasError()
T34F0 003:940.142 JLINK_ReadReg(R0)
T34F0 003:940.148 - 0.005ms returns 0x00000001
T34F0 003:940.152 JLINK_ReadReg(R1)
T34F0 003:940.156 - 0.003ms returns 0x200055B8
T34F0 003:940.160 JLINK_ReadReg(R2)
T34F0 003:940.164 - 0.003ms returns 0x80000000
T34F0 003:940.169 JLINK_ReadReg(R3)
T34F0 003:940.172 - 0.003ms returns 0x080103EE
T34F0 003:940.177 JLINK_ReadReg(R4)
T34F0 003:940.180 - 0.003ms returns 0x00000004
T34F0 003:940.185 JLINK_ReadReg(R5)
T34F0 003:940.188 - 0.003ms returns 0x00000002
T34F0 003:940.193 JLINK_ReadReg(R6)
T34F0 003:940.196 - 0.003ms returns 0x200000A4
T34F0 003:940.200 JLINK_ReadReg(R7)
T34F0 003:940.204 - 0.003ms returns 0x080103ED
T34F0 003:940.214 JLINK_ReadReg(R8)
T34F0 003:940.221 - 0.007ms returns 0x00000000
T34F0 003:940.225 JLINK_ReadReg(R9)
T34F0 003:940.229 - 0.003ms returns 0x00000000
T34F0 003:940.233 JLINK_ReadReg(R10)
T34F0 003:940.237 - 0.003ms returns 0x0801098C
T34F0 003:940.241 JLINK_ReadReg(R11)
T34F0 003:940.245 - 0.003ms returns 0x00000000
T34F0 003:940.249 JLINK_ReadReg(R12)
T34F0 003:940.253 - 0.003ms returns 0x00000000
T34F0 003:940.257 JLINK_ReadReg(R13 (SP))
T34F0 003:940.261 - 0.003ms returns 0x200055B8
T34F0 003:940.266 JLINK_ReadReg(R14)
T34F0 003:940.269 - 0.003ms returns 0x08001A73
T34F0 003:940.274 JLINK_ReadReg(R15 (PC))
T34F0 003:940.277 - 0.003ms returns 0x08001A78
T34F0 003:940.282 JLINK_ReadReg(XPSR)
T34F0 003:940.286 - 0.004ms returns 0x21000000
T34F0 003:940.291 JLINK_ReadReg(MSP)
T34F0 003:940.294 - 0.003ms returns 0x200055B8
T34F0 003:940.299 JLINK_ReadReg(PSP)
T34F0 003:940.303 - 0.003ms returns 0x00000000
T34F0 003:940.307 JLINK_ReadReg(CFBP)
T34F0 003:940.311 - 0.003ms returns 0x04000000
T34F0 003:940.316 JLINK_ReadReg(FPSCR)
T34F0 003:945.803 - 5.486ms returns 0x03000000
T34F0 003:945.835 JLINK_ReadReg(FPS0)
T34F0 003:945.846 - 0.011ms returns 0x00000000
T34F0 003:945.853 JLINK_ReadReg(FPS1)
T34F0 003:945.857 - 0.004ms returns 0x00000000
T34F0 003:945.864 JLINK_ReadReg(FPS2)
T34F0 003:945.867 - 0.003ms returns 0x00000000
T34F0 003:945.871 JLINK_ReadReg(FPS3)
T34F0 003:945.875 - 0.003ms returns 0x00000000
T34F0 003:945.880 JLINK_ReadReg(FPS4)
T34F0 003:945.884 - 0.003ms returns 0x00000000
T34F0 003:945.926 JLINK_ReadReg(FPS5)
T34F0 003:945.930 - 0.004ms returns 0x00000000
T34F0 003:945.934 JLINK_ReadReg(FPS6)
T34F0 003:945.937 - 0.003ms returns 0x00000000
T34F0 003:945.941 JLINK_ReadReg(FPS7)
T34F0 003:945.944 - 0.003ms returns 0x00000000
T34F0 003:945.948 JLINK_ReadReg(FPS8)
T34F0 003:945.952 - 0.003ms returns 0x00000000
T34F0 003:945.955 JLINK_ReadReg(FPS9)
T34F0 003:945.958 - 0.003ms returns 0x00000000
T34F0 003:945.962 JLINK_ReadReg(FPS10)
T34F0 003:945.965 - 0.003ms returns 0x00000000
T34F0 003:945.969 JLINK_ReadReg(FPS11)
T34F0 003:945.972 - 0.003ms returns 0x00000000
T34F0 003:945.976 JLINK_ReadReg(FPS12)
T34F0 003:945.979 - 0.003ms returns 0x00000000
T34F0 003:945.983 JLINK_ReadReg(FPS13)
T34F0 003:945.986 - 0.003ms returns 0x00000000
T34F0 003:945.990 JLINK_ReadReg(FPS14)
T34F0 003:945.993 - 0.003ms returns 0x00000000
T34F0 003:945.997 JLINK_ReadReg(FPS15)
T34F0 003:946.000 - 0.003ms returns 0x00000000
T34F0 003:946.004 JLINK_ReadReg(FPS16)
T34F0 003:946.007 - 0.003ms returns 0x00000000
T34F0 003:946.011 JLINK_ReadReg(FPS17)
T34F0 003:946.014 - 0.003ms returns 0x00000000
T34F0 003:946.018 JLINK_ReadReg(FPS18)
T34F0 003:946.021 - 0.003ms returns 0x00000000
T34F0 003:946.024 JLINK_ReadReg(FPS19)
T34F0 003:946.028 - 0.003ms returns 0x00000000
T34F0 003:946.032 JLINK_ReadReg(FPS20)
T34F0 003:946.034 - 0.003ms returns 0x00000000
T34F0 003:946.038 JLINK_ReadReg(FPS21)
T34F0 003:946.041 - 0.003ms returns 0x00000000
T34F0 003:946.045 JLINK_ReadReg(FPS22)
T34F0 003:946.048 - 0.003ms returns 0x00000000
T34F0 003:946.052 JLINK_ReadReg(FPS23)
T34F0 003:946.055 - 0.003ms returns 0x00000000
T34F0 003:946.059 JLINK_ReadReg(FPS24)
T34F0 003:946.062 - 0.003ms returns 0x00000000
T34F0 003:946.066 JLINK_ReadReg(FPS25)
T34F0 003:946.069 - 0.003ms returns 0x00000000
T34F0 003:946.072 JLINK_ReadReg(FPS26)
T34F0 003:946.076 - 0.003ms returns 0x00000000
T34F0 003:946.080 JLINK_ReadReg(FPS27)
T34F0 003:946.083 - 0.003ms returns 0x00000000
T34F0 003:946.086 JLINK_ReadReg(FPS28)
T34F0 003:946.090 - 0.003ms returns 0x00000000
T34F0 003:946.093 JLINK_ReadReg(FPS29)
T34F0 003:946.096 - 0.003ms returns 0x00000000
T34F0 003:946.100 JLINK_ReadReg(FPS30)
T34F0 003:946.103 - 0.003ms returns 0x00000000
T34F0 003:946.107 JLINK_ReadReg(FPS31)
T34F0 003:946.110 - 0.003ms returns 0x00000000
T34F0 003:946.120 JLINK_ReadMemEx(0x20004BF8, 0x4 Bytes, Flags = 0x02000000)
T34F0 003:946.135   CPU_ReadMem(64 bytes @ 0x20004BC0)
T34F0 003:947.117    -- Updating C cache (64 bytes @ 0x20004BC0)
T34F0 003:947.135    -- Read from C cache (4 bytes @ 0x20004BF8)
T34F0 003:947.141   Data:  00 00 00 00
T34F0 003:947.148 - 1.028ms returns 4 (0x4)
T6714 003:947.574 JLINK_ReadMemEx(0x200055C4, 0x4 Bytes, Flags = 0x02000000)
T6714 003:947.589   CPU_ReadMem(64 bytes @ 0x200055C0)
T6714 003:948.675    -- Updating C cache (64 bytes @ 0x200055C0)
T6714 003:948.684    -- Read from C cache (4 bytes @ 0x200055C4)
T6714 003:948.689   Data:  E9 18 00 08
T6714 003:948.695 - 1.121ms returns 4 (0x4)
T6714 003:948.704 JLINK_ReadMemEx(0x200055C4, 0x4 Bytes, Flags = 0x02000000)
T6714 003:948.710    -- Read from C cache (4 bytes @ 0x200055C4)
T6714 003:948.715   Data:  E9 18 00 08
T6714 003:948.720 - 0.015ms returns 4 (0x4)
T6714 003:948.726 JLINK_ReadMemEx(0x200055DC, 0x4 Bytes, Flags = 0x02000000)
T6714 003:948.731    -- Read from C cache (4 bytes @ 0x200055DC)
T6714 003:948.736   Data:  9D 0D 00 08
T6714 003:948.741 - 0.014ms returns 4 (0x4)
T6714 003:948.746 JLINK_ReadMemEx(0x200055C8, 0x4 Bytes, Flags = 0x02000000)
T6714 003:948.750    -- Read from C cache (4 bytes @ 0x200055C8)
T6714 003:948.756   Data:  6C 01 00 20
T6714 003:948.760 - 0.014ms returns 4 (0x4)
T6714 003:948.765 JLINK_ReadMemEx(0x200055CC, 0x4 Bytes, Flags = 0x02000000)
T6714 003:948.769    -- Read from C cache (4 bytes @ 0x200055CC)
T6714 003:948.774   Data:  4C 01 00 20
T6714 003:948.779 - 0.014ms returns 4 (0x4)
T6714 003:948.784 JLINK_ReadMemEx(0x200055D0, 0x4 Bytes, Flags = 0x02000000)
T6714 003:948.788    -- Read from C cache (4 bytes @ 0x200055D0)
T6714 003:948.793   Data:  00 00 00 00
T6714 003:948.798 - 0.014ms returns 4 (0x4)
T6714 003:948.803 JLINK_ReadMemEx(0x200055D4, 0x4 Bytes, Flags = 0x02000000)
T6714 003:948.807    -- Read from C cache (4 bytes @ 0x200055D4)
T6714 003:948.812   Data:  00 00 00 00
T6714 003:948.817 - 0.014ms returns 4 (0x4)
T6714 003:948.821 JLINK_ReadMemEx(0x200055D8, 0x4 Bytes, Flags = 0x02000000)
T6714 003:948.825    -- Read from C cache (4 bytes @ 0x200055D8)
T6714 003:948.830   Data:  00 00 00 00
T6714 003:948.835 - 0.014ms returns 4 (0x4)
T6714 003:948.840 JLINK_ReadMemEx(0x200055DC, 0x4 Bytes, Flags = 0x02000000)
T6714 003:948.844    -- Read from C cache (4 bytes @ 0x200055DC)
T6714 003:948.849   Data:  9D 0D 00 08
T6714 003:948.854 - 0.014ms returns 4 (0x4)
T6714 003:948.860 JLINK_ReadMemEx(0x200055E4, 0x4 Bytes, Flags = 0x02000000)
T6714 003:948.864    -- Read from C cache (4 bytes @ 0x200055E4)
T6714 003:948.869   Data:  E7 02 00 08
T6714 003:948.874 - 0.014ms returns 4 (0x4)
T6714 003:948.886 JLINK_ReadMemEx(0x200055E0, 0x4 Bytes, Flags = 0x02000000)
T6714 003:948.891    -- Read from C cache (4 bytes @ 0x200055E0)
T6714 003:948.896   Data:  6C 01 00 20
T6714 003:948.901 - 0.014ms returns 4 (0x4)
T6714 003:948.906 JLINK_ReadMemEx(0x200055E4, 0x4 Bytes, Flags = 0x02000000)
T6714 003:948.910    -- Read from C cache (4 bytes @ 0x200055E4)
T6714 003:948.915   Data:  E7 02 00 08
T6714 003:948.920 - 0.014ms returns 4 (0x4)
T34F0 004:149.988 JLINK_ReadMemEx(0x08001A78, 0x2 Bytes, Flags = 0x02000000)
T34F0 004:150.022   CPU_ReadMem(64 bytes @ 0x08001A40)
T34F0 004:151.026    -- Updating C cache (64 bytes @ 0x08001A40)
T34F0 004:151.036    -- Read from C cache (2 bytes @ 0x08001A78)
T34F0 004:151.041   Data:  AB BE
T34F0 004:151.046 - 1.059ms returns 2 (0x2)
T34F0 004:151.053 JLINK_HasError()
T34F0 004:151.059 JLINK_WriteReg(R15 (PC), 0x08001A7A)
T34F0 004:151.066 - 0.007ms returns 0
T34F0 004:151.070 JLINK_HasError()
T34F0 004:151.074 JLINK_HasError()
T34F0 004:151.079 JLINK_Go()
T34F0 004:151.090   CPU_ReadMem(4 bytes @ 0xE0001000)
T34F0 004:152.977 - 1.897ms 
T34F0 004:253.477 JLINK_HasError()
T34F0 004:253.509 JLINK_IsHalted()
T34F0 004:257.053 - 3.543ms returns TRUE
T34F0 004:257.075 JLINK_HasError()
T34F0 004:257.081 JLINK_Halt()
T34F0 004:257.084 - 0.003ms returns 0x00
T34F0 004:257.089 JLINK_IsHalted()
T34F0 004:257.092 - 0.003ms returns TRUE
T34F0 004:257.096 JLINK_IsHalted()
T34F0 004:257.099 - 0.003ms returns TRUE
T34F0 004:257.105 JLINK_IsHalted()
T34F0 004:257.110 - 0.004ms returns TRUE
T34F0 004:257.115 JLINK_HasError()
T34F0 004:257.123 JLINK_ReadReg(R15 (PC))
T34F0 004:257.133 - 0.013ms returns 0x08001A78
T34F0 004:257.138 JLINK_ReadReg(XPSR)
T34F0 004:257.143 - 0.004ms returns 0x21000000
T34F0 004:257.153 JLINK_HasError()
T34F0 004:257.157 JLINK_HasError()
T34F0 004:257.161 JLINK_ReadMemU32(0xE000ED30, 0x1 Items)
T34F0 004:257.172   CPU_ReadMem(4 bytes @ 0xE000ED30)
T34F0 004:257.729   Data:  02 00 00 00
T34F0 004:257.741 - 0.579ms returns 1 (0x1)
T34F0 004:257.747 JLINK_ReadMemU32(0xE0001028, 0x1 Items)
T34F0 004:257.754   CPU_ReadMem(4 bytes @ 0xE0001028)
T34F0 004:258.343   Data:  00 00 00 00
T34F0 004:258.354   Debug reg: DWT_FUNC[0]
T34F0 004:258.359 - 0.611ms returns 1 (0x1)
T34F0 004:258.364 JLINK_ReadMemU32(0xE0001038, 0x1 Items)
T34F0 004:258.369   CPU_ReadMem(4 bytes @ 0xE0001038)
T34F0 004:259.034   Data:  00 02 00 00
T34F0 004:259.045   Debug reg: DWT_FUNC[1]
T34F0 004:259.052 - 0.687ms returns 1 (0x1)
T34F0 004:259.058 JLINK_ReadMemU32(0xE0001048, 0x1 Items)
T34F0 004:259.067   CPU_ReadMem(4 bytes @ 0xE0001048)
T34F0 004:259.579   Data:  00 00 00 00
T34F0 004:259.587   Debug reg: DWT_FUNC[2]
T34F0 004:259.593 - 0.534ms returns 1 (0x1)
T34F0 004:259.599 JLINK_ReadMemU32(0xE0001058, 0x1 Items)
T34F0 004:259.605   CPU_ReadMem(4 bytes @ 0xE0001058)
T34F0 004:260.072   Data:  00 00 00 00
T34F0 004:260.081   Debug reg: DWT_FUNC[3]
T34F0 004:260.086 - 0.487ms returns 1 (0x1)
T34F0 004:260.129 JLINK_HasError()
T34F0 004:260.135 JLINK_ReadReg(R0)
T34F0 004:260.140 - 0.005ms returns 0x00000001
T34F0 004:260.145 JLINK_ReadReg(R1)
T34F0 004:260.148 - 0.003ms returns 0x200055B8
T34F0 004:260.152 JLINK_ReadReg(R2)
T34F0 004:260.155 - 0.003ms returns 0x80000000
T34F0 004:260.159 JLINK_ReadReg(R3)
T34F0 004:260.162 - 0.003ms returns 0x080103F2
T34F0 004:260.166 JLINK_ReadReg(R4)
T34F0 004:260.177 - 0.011ms returns 0x00000004
T34F0 004:260.181 JLINK_ReadReg(R5)
T34F0 004:260.185 - 0.003ms returns 0x00000002
T34F0 004:260.188 JLINK_ReadReg(R6)
T34F0 004:260.191 - 0.003ms returns 0x200000F8
T34F0 004:260.195 JLINK_ReadReg(R7)
T34F0 004:260.198 - 0.003ms returns 0x080103F1
T34F0 004:260.202 JLINK_ReadReg(R8)
T34F0 004:260.205 - 0.003ms returns 0x00000000
T34F0 004:260.213 JLINK_ReadReg(R9)
T34F0 004:260.219 - 0.005ms returns 0x00000000
T34F0 004:260.223 JLINK_ReadReg(R10)
T34F0 004:260.228 - 0.004ms returns 0x0801098C
T34F0 004:260.233 JLINK_ReadReg(R11)
T34F0 004:260.237 - 0.004ms returns 0x00000000
T34F0 004:260.241 JLINK_ReadReg(R12)
T34F0 004:260.244 - 0.003ms returns 0x00000000
T34F0 004:260.248 JLINK_ReadReg(R13 (SP))
T34F0 004:260.251 - 0.003ms returns 0x200055B8
T34F0 004:260.255 JLINK_ReadReg(R14)
T34F0 004:260.258 - 0.003ms returns 0x08001A73
T34F0 004:260.262 JLINK_ReadReg(R15 (PC))
T34F0 004:260.265 - 0.003ms returns 0x08001A78
T34F0 004:260.269 JLINK_ReadReg(XPSR)
T34F0 004:260.273 - 0.003ms returns 0x21000000
T34F0 004:260.277 JLINK_ReadReg(MSP)
T34F0 004:260.280 - 0.003ms returns 0x200055B8
T34F0 004:260.284 JLINK_ReadReg(PSP)
T34F0 004:260.287 - 0.003ms returns 0x00000000
T34F0 004:260.291 JLINK_ReadReg(CFBP)
T34F0 004:260.294 - 0.003ms returns 0x04000000
T34F0 004:260.299 JLINK_ReadReg(FPSCR)
T34F0 004:265.582 - 5.282ms returns 0x03000000
T34F0 004:265.598 JLINK_ReadReg(FPS0)
T34F0 004:265.604 - 0.005ms returns 0x00000000
T34F0 004:265.608 JLINK_ReadReg(FPS1)
T34F0 004:265.612 - 0.003ms returns 0x00000000
T34F0 004:265.617 JLINK_ReadReg(FPS2)
T34F0 004:265.620 - 0.003ms returns 0x00000000
T34F0 004:265.625 JLINK_ReadReg(FPS3)
T34F0 004:265.629 - 0.003ms returns 0x00000000
T34F0 004:265.633 JLINK_ReadReg(FPS4)
T34F0 004:265.637 - 0.003ms returns 0x00000000
T34F0 004:265.641 JLINK_ReadReg(FPS5)
T34F0 004:265.645 - 0.003ms returns 0x00000000
T34F0 004:265.649 JLINK_ReadReg(FPS6)
T34F0 004:265.653 - 0.003ms returns 0x00000000
T34F0 004:265.657 JLINK_ReadReg(FPS7)
T34F0 004:265.661 - 0.003ms returns 0x00000000
T34F0 004:265.665 JLINK_ReadReg(FPS8)
T34F0 004:265.674 - 0.009ms returns 0x00000000
T34F0 004:265.679 JLINK_ReadReg(FPS9)
T34F0 004:265.682 - 0.003ms returns 0x00000000
T34F0 004:265.687 JLINK_ReadReg(FPS10)
T34F0 004:265.690 - 0.003ms returns 0x00000000
T34F0 004:265.695 JLINK_ReadReg(FPS11)
T34F0 004:265.698 - 0.003ms returns 0x00000000
T34F0 004:265.703 JLINK_ReadReg(FPS12)
T34F0 004:265.707 - 0.003ms returns 0x00000000
T34F0 004:265.711 JLINK_ReadReg(FPS13)
T34F0 004:265.715 - 0.003ms returns 0x00000000
T34F0 004:265.719 JLINK_ReadReg(FPS14)
T34F0 004:265.723 - 0.003ms returns 0x00000000
T34F0 004:265.727 JLINK_ReadReg(FPS15)
T34F0 004:265.731 - 0.003ms returns 0x00000000
T34F0 004:265.735 JLINK_ReadReg(FPS16)
T34F0 004:265.739 - 0.003ms returns 0x00000000
T34F0 004:265.743 JLINK_ReadReg(FPS17)
T34F0 004:265.747 - 0.003ms returns 0x00000000
T34F0 004:265.751 JLINK_ReadReg(FPS18)
T34F0 004:265.755 - 0.003ms returns 0x00000000
T34F0 004:265.759 JLINK_ReadReg(FPS19)
T34F0 004:265.763 - 0.003ms returns 0x00000000
T34F0 004:265.767 JLINK_ReadReg(FPS20)
T34F0 004:265.771 - 0.003ms returns 0x00000000
T34F0 004:265.775 JLINK_ReadReg(FPS21)
T34F0 004:265.779 - 0.003ms returns 0x00000000
T34F0 004:265.783 JLINK_ReadReg(FPS22)
T34F0 004:265.787 - 0.003ms returns 0x00000000
T34F0 004:265.791 JLINK_ReadReg(FPS23)
T34F0 004:265.795 - 0.003ms returns 0x00000000
T34F0 004:265.799 JLINK_ReadReg(FPS24)
T34F0 004:265.803 - 0.003ms returns 0x00000000
T34F0 004:265.807 JLINK_ReadReg(FPS25)
T34F0 004:265.811 - 0.003ms returns 0x00000000
T34F0 004:265.815 JLINK_ReadReg(FPS26)
T34F0 004:265.819 - 0.003ms returns 0x00000000
T34F0 004:265.823 JLINK_ReadReg(FPS27)
T34F0 004:265.826 - 0.003ms returns 0x00000000
T34F0 004:265.831 JLINK_ReadReg(FPS28)
T34F0 004:265.835 - 0.003ms returns 0x00000000
T34F0 004:265.839 JLINK_ReadReg(FPS29)
